
T09FC 000:603 SEGGER J-Link V4.90 Log File (0001ms, 0281ms total)
T09FC 000:603 DLL Compiled: Jul 28 2014 10:35:20 (0001ms, 0281ms total)
T09FC 000:603 Logging started @ 2019-08-14 21:23 (0001ms, 0281ms total)
T09FC 000:604 JLINK_SetWarnOutHandler(...) (0000ms, 0281ms total)
T09FC 000:604 JLINK_OpenEx(...)
Firmware: J-Link OB-STM32F072-CortexM compiled Mar  8 2020 11:15:54
Hardware: V1.00
Feature(s): GDB, RDI, FlashBP, FlashDL, JFlash, RDDI  returns O.K. (0277ms, 0558ms total)
T09FC 000:881 JLINK_SetErrorOutHandler(...) (0000ms, 0558ms total)
T09FC 000:882 JLINK_ExecCommand("ProjectFile = "E:\文档\研究生项目\407Lab\407_LabManageSys_Device\software\USER\JLinkSettings.ini"", ...)  returns 0x00 (0001ms, 0559ms total)
T09FC 000:887 JLINK_ExecCommand("Device = STM32F407ZG", ...)Device "STM32F407ZG" selected (1024 KB flash, 128 KB RAM).  returns 0x00 (0005ms, 0564ms total)
T09FC 000:892 JLINK_ExecCommand("DisableConnectionTimeout", ...)  returns 0x01 (0000ms, 0565ms total)
T09FC 000:893 JLINK_GetHardwareVersion()  returns 0x2710 (0000ms, 0565ms total)
T09FC 000:893 JLINK_GetDLLVersion()  returns 49000 (0000ms, 0565ms total)
T09FC 000:893 JLINK_GetFirmwareString(...) (0000ms, 0565ms total)
T09FC 000:956 JLINK_GetDLLVersion()  returns 49000 (0001ms, 0566ms total)
T09FC 000:957 JLINK_GetCompileDateTime() (0000ms, 0566ms total)
T09FC 000:966 JLINK_GetFirmwareString(...) (0000ms, 0566ms total)
T09FC 000:977 JLINK_GetHardwareVersion()  returns 0x2710 (0000ms, 0566ms total)
T09FC 001:013 JLINK_TIF_Select(JLINKARM_TIF_SWD)  returns 0x00 (0003ms, 0569ms total)
T09FC 001:016 JLINK_SetSpeed(5000) (0000ms, 0569ms total)
T09FC 001:016 JLINK_GetId() >0x108 TIF>Found SWD-DP with ID 0x2BA01477 >0x0D TIF> >0x28 TIF> >0x0D TIF> >0x28 TIF> >0x0D TIF> >0x21 TIF> >0x0D TIF> >0x28 TIF> >0x0D TIF> >0x28 TIF> >0x0D TIF> >0x28 TIF> >0x0D TIF> >0x21 TIF> >0x0D TIF> >0x21 TIF> >0x0D TIF> >0x28 TIF> >0x0D TIF> >0x21 TIF> >0x0D TIF> >0x21 TIF> >0x0D TIF> >0x28 TIF> >0x0D TIF> >0x21 TIF> >0x0D TIF> >0x21 TIF> >0x108 TIF>Found SWD-DP with ID 0x2BA01477 >0x0D TIF> >0x21 TIF> >0x0D TIF> >0x28 TIF> >0x0D TIF> >0x28 TIF> >0x0D TIF> >0x21 TIF>
 >0x0D TIF> >0x28 TIF> >0x0D TIF> >0x21 TIF> >0x0D TIF> >0x21 TIF> >0x0D TIF> >0x21 TIF> >0x0D TIF> >0x21 TIF> >0x0D TIF> >0x28 TIF> >0x0D TIF> >0x28 TIF> >0x0D TIF> >0x21 TIF> >0x0D TIF> >0x28 TIF> >0x0D TIF> >0x28 TIF> >0x0D TIF> >0x28 TIF> >0x0D TIF> >0x21 TIF> >0x0D TIF> >0x21 TIF> >0x0D TIF> >0x28 TIF> >0x0D TIF> >0x21 TIF> >0x0D TIF> >0x21 TIF>Found Cortex-M4 r0p1, Little endian. -- CPU_WriteMem(4 bytes @ 0xE0002000) -- CPU_ReadMem(4 bytes @ 0xE000EDF0) -- CPU_ReadMem(4 bytes @ 0xE0002000)
FPUnit: 6 code (BP) slots and 2 literal slots -- CPU_ReadMem(4 bytes @ 0xE000EDFC) -- CPU_ReadMem(4 bytes @ 0xE0001000) -- CPU_WriteMem(4 bytes @ 0xE0001000) -- CPU_ReadMem(4 bytes @ 0xE00FF010)TPIU fitted. -- CPU_ReadMem(4 bytes @ 0xE00FF014)ETM fitted. -- CPU_ReadMem(4 bytes @ 0xE00FF018) >0x0D TIF> >0x21 TIF>  returns 0x2BA01477 (0192ms, 0761ms total)
T09FC 001:208 JLINK_GetDLLVersion()  returns 49000 (0000ms, 0761ms total)
T09FC 001:208 JLINK_CORE_GetFound()  returns 0xE0000FF (0001ms, 0762ms total)
T09FC 001:221 JLINK_GetDebugInfo(0x100) -- Value=0xE00FF003  returns 0x00 (0000ms, 0762ms total)
T09FC 001:221 JLINK_GetDebugInfo(0x101)  returns 0xFFFFFFFF (0001ms, 0763ms total)
T09FC 001:222 JLINK_ReadMem (0xE0041FF0, 0x0010 Bytes, ...) -- CPU is running -- CPU_ReadMem(16 bytes @ 0xE0041FF0) - Data: 0D 00 00 00 90 00 00 00 05 00 00 00 B1 00 00 00  returns 0x00 (0001ms, 0764ms total)
T09FC 001:223 JLINK_GetDebugInfo(0x102)  returns 0xFFFFFFFF (0000ms, 0764ms total)
T09FC 001:223 JLINK_GetDebugInfo(0x103)  returns 0xFFFFFFFF (0001ms, 0765ms total)
T09FC 001:224 JLINK_ReadMem (0xE0040FF0, 0x0010 Bytes, ...) -- CPU is running -- CPU_ReadMem(16 bytes @ 0xE0040FF0) - Data: 0D 00 00 00 90 00 00 00 05 00 00 00 B1 00 00 00  returns 0x00 (0001ms, 0766ms total)
T09FC 001:225 JLINK_GetDebugInfo(0x104)  returns 0xFFFFFFFF (0000ms, 0766ms total)
T09FC 001:226 JLINK_GetDebugInfo(0x105)  returns 0xFFFFFFFF (0000ms, 0767ms total)
T09FC 001:226 JLINK_GetDebugInfo(0x106)  returns 0xFFFFFFFF (0000ms, 0767ms total)
T09FC 001:226 JLINK_GetDebugInfo(0x107)  returns 0xFFFFFFFF (0000ms, 0767ms total)
T09FC 001:226 JLINK_GetDebugInfo(0x10C)  returns 0xFFFFFFFF (0000ms, 0767ms total)
T09FC 001:226 JLINK_ReadMemU32(0xE000EF40, 0x0001 Items, ...) -- CPU is running -- CPU_ReadMem(4 bytes @ 0xE000EF40) - Data: 21 00 11 10  returns 0x01 (0002ms, 0769ms total)
T09FC 001:228 JLINK_ReadMemU32(0xE000EF44, 0x0001 Items, ...) -- CPU is running -- CPU_ReadMem(4 bytes @ 0xE000EF44) - Data: 11 00 00 11  returns 0x01 (0002ms, 0771ms total)
T09FC 001:230 JLINK_ReadMemU32(0xE000ED00, 0x0001 Items, ...) -- CPU is running -- CPU_ReadMem(4 bytes @ 0xE000ED00) - Data: 41 C2 0F 41  returns 0x01 (0001ms, 0772ms total)
T09FC 001:231 JLINK_SetResetType(JLINKARM_RESET_TYPE_NORMAL)  returns JLINKARM_RESET_TYPE_NORMAL (0000ms, 0772ms total)
T09FC 001:231 JLINK_Reset() -- CPU is running -- CPU_WriteMem(4 bytes @ 0xE000EDF0) -- CPU is running -- CPU_WriteMem(4 bytes @ 0xE000EDFC) >0x35 TIF> -- CPU is running -- CPU_WriteMem(4 bytes @ 0xE000ED0C) -- CPU is running -- CPU_ReadMem(4 bytes @ 0xE000EDF0) -- CPU is running -- CPU_ReadMem(4 bytes @ 0xE000EDF0) -- CPU is running -- CPU_WriteMem(4 bytes @ 0xE000EDF0) -- CPU is running -- CPU_WriteMem(4 bytes @ 0xE000EDFC) -- CPU is running -- CPU_ReadMem(4 bytes @ 0xE000EDF0)
 -- CPU_WriteMem(4 bytes @ 0xE0002000) -- CPU_ReadMem(4 bytes @ 0xE000EDFC) -- CPU_ReadMem(4 bytes @ 0xE0001000) (0028ms, 0800ms total)
T09FC 001:259 JLINK_Halt()  returns 0x00 (0000ms, 0800ms total)
T09FC 001:259 JLINK_IsHalted()  returns TRUE (0000ms, 0800ms total)
T09FC 001:259 JLINK_ReadMemU32(0xE000EDF0, 0x0001 Items, ...) -- CPU_ReadMem(4 bytes @ 0xE000EDF0) - Data: 03 00 03 00  returns 0x01 (0001ms, 0801ms total)
T09FC 001:260 JLINK_WriteU32(0xE000EDF0, 0xA05F0003) -- CPU_WriteMem(4 bytes @ 0xE000EDF0)  returns 0x00 (0001ms, 0802ms total)
T09FC 001:261 JLINK_WriteU32(0xE000EDFC, 0x01000000) -- CPU_WriteMem(4 bytes @ 0xE000EDFC)  returns 0x00 (0002ms, 0804ms total)
T09FC 001:318 JLINK_GetHWStatus(...)  returns 0x00 (0001ms, 0805ms total)
T09FC 001:350 JLINK_GetNumBPUnits(Type = 0xFFFFFF00)  returns 0x06 (0001ms, 0806ms total)
T09FC 001:351 JLINK_GetNumBPUnits(Type = 0xF0)  returns 0x2000 (0000ms, 0806ms total)
T09FC 001:351 JLINK_GetNumWPUnits()  returns 0x04 (0000ms, 0806ms total)
T09FC 001:385 JLINK_GetSpeed()  returns 0x7D0 (0000ms, 0806ms total)
T09FC 001:401 JLINK_ReadMemU32(0xE000E004, 0x0001 Items, ...) -- CPU_ReadMem(4 bytes @ 0xE000E004) - Data: 02 00 00 00  returns 0x01 (0001ms, 0807ms total)
T09FC 001:402 JLINK_ReadMemU32(0xE000E004, 0x0001 Items, ...) -- CPU_ReadMem(4 bytes @ 0xE000E004) - Data: 02 00 00 00  returns 0x01 (0001ms, 0808ms total)
T09FC 001:403 JLINK_WriteMem(0xE0001000, 0x001C Bytes, ...) - Data: 01 00 00 00 00 00 00 00 00 00 00 00 00 00 00 00 ... -- CPU_WriteMem(28 bytes @ 0xE0001000)  returns 0x1C (0002ms, 0810ms total)
T09FC 001:405 JLINK_ReadMem (0xE0001000, 0x001C Bytes, ...) -- CPU_ReadMem(28 bytes @ 0xE0001000) - Data: 01 00 00 40 00 00 00 00 00 00 00 00 00 00 00 00 ...  returns 0x00 (0001ms, 0811ms total)
T09FC 001:406 JLINK_Halt()  returns 0x00 (0000ms, 0811ms total)
T09FC 001:406 JLINK_IsHalted()  returns TRUE (0000ms, 0811ms total)
T09FC 001:418 JLINK_WriteMem(0x20000000, 0x0180 Bytes, ...) - Data: 00 BE 0A E0 0D 78 2D 06 68 40 08 24 40 00 00 D3 ... -- CPU_WriteMem(384 bytes @ 0x20000000)  returns 0x180 (0006ms, 0817ms total)
T09FC 001:424 JLINK_WriteReg(R0, 0x08000000)  returns 0x00 (0000ms, 0817ms total)
T09FC 001:424 JLINK_WriteReg(R1, 0x00B71B00)  returns 0x00 (0000ms, 0817ms total)
T09FC 001:424 JLINK_WriteReg(R2, 0x00000001)  returns 0x00 (0000ms, 0817ms total)
T09FC 001:424 JLINK_WriteReg(R3, 0x00000000)  returns 0x00 (0001ms, 0818ms total)
T09FC 001:425 JLINK_WriteReg(R4, 0x00000000)  returns 0x00 (0000ms, 0818ms total)
T09FC 001:425 JLINK_WriteReg(R5, 0x00000000)  returns 0x00 (0000ms, 0818ms total)
T09FC 001:425 JLINK_WriteReg(R6, 0x00000000)  returns 0x00 (0000ms, 0818ms total)
T09FC 001:425 JLINK_WriteReg(R7, 0x00000000)  returns 0x00 (0000ms, 0818ms total)
T09FC 001:425 JLINK_WriteReg(R8, 0x00000000)  returns 0x00 (0001ms, 0819ms total)
T09FC 001:426 JLINK_WriteReg(R9, 0x2000017C)  returns 0x00 (0000ms, 0819ms total)
T09FC 001:426 JLINK_WriteReg(R10, 0x00000000)  returns 0x00 (0000ms, 0819ms total)
T09FC 001:426 JLINK_WriteReg(R11, 0x00000000)  returns 0x00 (0000ms, 0819ms total)
T09FC 001:426 JLINK_WriteReg(R12, 0x00000000)  returns 0x00 (0000ms, 0819ms total)
T09FC 001:426 JLINK_WriteReg(R13 (SP), 0x20001000)  returns 0x00 (0001ms, 0820ms total)
T09FC 001:427 JLINK_WriteReg(R14, 0x20000001)  returns 0x00 (0000ms, 0820ms total)
T09FC 001:427 JLINK_WriteReg(R15 (PC), 0x20000054)  returns 0x00 (0000ms, 0820ms total)
T09FC 001:427 JLINK_WriteReg(XPSR, 0x01000000)  returns 0x00 (0000ms, 0820ms total)
T09FC 001:427 JLINK_WriteReg(MSP, 0x20001000)  returns 0x00 (0000ms, 0820ms total)
T09FC 001:427 JLINK_WriteReg(PSP, 0x20001000)  returns 0x00 (0001ms, 0821ms total)
T09FC 001:428 JLINK_WriteReg(CFBP, 0x00000000)  returns 0x00 (0000ms, 0821ms total)
T09FC 001:428 JLINK_SetBPEx(Addr = 0x20000000, Type = 0xFFFFFFF2) -- CPU_ReadMem(2 bytes @ 0x20000000)  returns 0x00000001 (0002ms, 0823ms total)
T09FC 001:430 JLINK_Go() -- CPU_WriteMem(2 bytes @ 0x20000000) -- CPU_WriteMem(4 bytes @ 0xE0002008) -- CPU_WriteMem(4 bytes @ 0xE000200C) -- CPU_WriteMem(4 bytes @ 0xE0002010) -- CPU_WriteMem(4 bytes @ 0xE0002014) -- CPU_WriteMem(4 bytes @ 0xE0002018) -- CPU_WriteMem(4 bytes @ 0xE000201C) -- CPU_WriteMem(4 bytes @ 0xE0001004) (0010ms, 0833ms total)
T09FC 001:440 JLINK_IsHalted() -- CPU_ReadMem(2 bytes @ 0x20000000)  returns TRUE (0007ms, 0840ms total)
T09FC 001:447 JLINK_ReadReg(R15 (PC))  returns 0x20000000 (0000ms, 0833ms total)
T09FC 001:447 JLINK_ClrBPEx(BPHandle = 0x00000001)  returns 0x00 (0000ms, 0833ms total)
T09FC 001:447 JLINK_ReadReg(R0)  returns 0x00000000 (0000ms, 0833ms total)
T09FC 001:448 JLINK_WriteReg(R0, 0x08000000)  returns 0x00 (0000ms, 0833ms total)
T09FC 001:448 JLINK_WriteReg(R1, 0x00004000)  returns 0x00 (0000ms, 0833ms total)
T09FC 001:448 JLINK_WriteReg(R2, 0x000000FF)  returns 0x00 (0001ms, 0834ms total)
T09FC 001:449 JLINK_WriteReg(R3, 0x00000000)  returns 0x00 (0000ms, 0834ms total)
T09FC 001:449 JLINK_WriteReg(R4, 0x00000000)  returns 0x00 (0000ms, 0834ms total)
T09FC 001:449 JLINK_WriteReg(R5, 0x00000000)  returns 0x00 (0000ms, 0834ms total)
T09FC 001:449 JLINK_WriteReg(R6, 0x00000000)  returns 0x00 (0000ms, 0834ms total)
T09FC 001:449 JLINK_WriteReg(R7, 0x00000000)  returns 0x00 (0000ms, 0834ms total)
T09FC 001:449 JLINK_WriteReg(R8, 0x00000000)  returns 0x00 (0001ms, 0835ms total)
T09FC 001:450 JLINK_WriteReg(R9, 0x2000017C)  returns 0x00 (0000ms, 0835ms total)
T09FC 001:450 JLINK_WriteReg(R10, 0x00000000)  returns 0x00 (0000ms, 0835ms total)
T09FC 001:450 JLINK_WriteReg(R11, 0x00000000)  returns 0x00 (0000ms, 0835ms total)
T09FC 001:450 JLINK_WriteReg(R12, 0x00000000)  returns 0x00 (0000ms, 0835ms total)
T09FC 001:450 JLINK_WriteReg(R13 (SP), 0x20001000)  returns 0x00 (0000ms, 0835ms total)
T09FC 001:450 JLINK_WriteReg(R14, 0x20000001)  returns 0x00 (0000ms, 0835ms total)
T09FC 001:451 JLINK_WriteReg(R15 (PC), 0x20000020)  returns 0x00 (0000ms, 0836ms total)
T09FC 001:451 JLINK_WriteReg(XPSR, 0x01000000)  returns 0x00 (0000ms, 0836ms total)
T09FC 001:451 JLINK_WriteReg(MSP, 0x20001000)  returns 0x00 (0000ms, 0836ms total)
T09FC 001:451 JLINK_WriteReg(PSP, 0x20001000)  returns 0x00 (0000ms, 0836ms total)
T09FC 001:451 JLINK_WriteReg(CFBP, 0x00000000)  returns 0x00 (0000ms, 0836ms total)
T09FC 001:451 JLINK_SetBPEx(Addr = 0x20000000, Type = 0xFFFFFFF2)  returns 0x00000002 (0000ms, 0836ms total)
T09FC 001:451 JLINK_Go() (0003ms, 0839ms total)
T09FC 001:455 JLINK_IsHalted() -- CPU_ReadMem(2 bytes @ 0x20000000)  returns TRUE (0006ms, 0846ms total)
T09FC 001:461 JLINK_ReadReg(R15 (PC))  returns 0x20000000 (0000ms, 0840ms total)
T09FC 001:461 JLINK_ClrBPEx(BPHandle = 0x00000002)  returns 0x00 (0000ms, 0840ms total)
T09FC 001:461 JLINK_ReadReg(R0)  returns 0x00000001 (0000ms, 0840ms total)
T09FC 001:461 JLINK_WriteReg(R0, 0x08000000)  returns 0x00 (0000ms, 0840ms total)
T09FC 001:462 JLINK_WriteReg(R1, 0x00004000)  returns 0x00 (0000ms, 0841ms total)
T09FC 001:462 JLINK_WriteReg(R2, 0x000000FF)  returns 0x00 (0000ms, 0841ms total)
T09FC 001:462 JLINK_WriteReg(R3, 0x00000000)  returns 0x00 (0000ms, 0841ms total)
T09FC 001:462 JLINK_WriteReg(R4, 0x00000000)  returns 0x00 (0000ms, 0841ms total)
T09FC 001:462 JLINK_WriteReg(R5, 0x00000000)  returns 0x00 (0000ms, 0841ms total)
T09FC 001:462 JLINK_WriteReg(R6, 0x00000000)  returns 0x00 (0000ms, 0841ms total)
T09FC 001:462 JLINK_WriteReg(R7, 0x00000000)  returns 0x00 (0001ms, 0842ms total)
T09FC 001:463 JLINK_WriteReg(R8, 0x00000000)  returns 0x00 (0000ms, 0842ms total)
T09FC 001:463 JLINK_WriteReg(R9, 0x2000017C)  returns 0x00 (0000ms, 0842ms total)
T09FC 001:463 JLINK_WriteReg(R10, 0x00000000)  returns 0x00 (0000ms, 0842ms total)
T09FC 001:463 JLINK_WriteReg(R11, 0x00000000)  returns 0x00 (0000ms, 0842ms total)
T09FC 001:463 JLINK_WriteReg(R12, 0x00000000)  returns 0x00 (0000ms, 0842ms total)
T09FC 001:463 JLINK_WriteReg(R13 (SP), 0x20001000)  returns 0x00 (0000ms, 0842ms total)
T09FC 001:463 JLINK_WriteReg(R14, 0x20000001)  returns 0x00 (0001ms, 0843ms total)
T09FC 001:464 JLINK_WriteReg(R15 (PC), 0x200000BC)  returns 0x00 (0000ms, 0843ms total)
T09FC 001:464 JLINK_WriteReg(XPSR, 0x01000000)  returns 0x00 (0000ms, 0843ms total)
T09FC 001:464 JLINK_WriteReg(MSP, 0x20001000)  returns 0x00 (0000ms, 0843ms total)
T09FC 001:464 JLINK_WriteReg(PSP, 0x20001000)  returns 0x00 (0000ms, 0843ms total)
T09FC 001:464 JLINK_WriteReg(CFBP, 0x00000000)  returns 0x00 (0000ms, 0843ms total)
T09FC 001:464 JLINK_SetBPEx(Addr = 0x20000000, Type = 0xFFFFFFF2)  returns 0x00000003 (0000ms, 0843ms total)
T09FC 001:464 JLINK_Go() (0003ms, 0846ms total)
T09FC 001:467 JLINK_IsHalted()  returns FALSE (0001ms, 0847ms total)
T09FC 001:634 JLINK_IsHalted()  returns FALSE (0001ms, 0847ms total)
T09FC 001:637 JLINK_IsHalted()  returns FALSE (0001ms, 0847ms total)
T09FC 001:657 JLINK_IsHalted()  returns FALSE (0001ms, 0847ms total)
T09FC 001:660 JLINK_IsHalted()  returns FALSE (0001ms, 0847ms total)
T09FC 001:663 JLINK_IsHalted()  returns FALSE (0001ms, 0847ms total)
T09FC 001:696 JLINK_IsHalted()  returns FALSE (0001ms, 0847ms total)
T09FC 001:710 JLINK_IsHalted()  returns FALSE (0001ms, 0847ms total)
T09FC 001:713 JLINK_IsHalted()  returns FALSE (0001ms, 0847ms total)
T09FC 001:716 JLINK_IsHalted()  returns FALSE (0001ms, 0847ms total)
T09FC 001:727 JLINK_IsHalted()  returns FALSE (0001ms, 0847ms total)
T09FC 001:743 JLINK_IsHalted()  returns FALSE (0001ms, 0847ms total)
T09FC 001:746 JLINK_IsHalted()  returns FALSE (0001ms, 0847ms total)
T09FC 001:757 JLINK_IsHalted()  returns FALSE (0001ms, 0847ms total)
T09FC 001:768 JLINK_IsHalted()  returns FALSE (0001ms, 0847ms total)
T09FC 001:770 JLINK_IsHalted()  returns FALSE (0001ms, 0847ms total)
T09FC 001:773 JLINK_IsHalted()  returns FALSE (0001ms, 0847ms total)
T09FC 001:776 JLINK_IsHalted()  returns FALSE (0001ms, 0847ms total)
T09FC 001:807 JLINK_IsHalted()  returns FALSE (0001ms, 0847ms total)
T09FC 001:821 JLINK_IsHalted()  returns FALSE (0001ms, 0847ms total)
T09FC 001:832 JLINK_IsHalted()  returns FALSE (0001ms, 0847ms total)
T09FC 001:834 JLINK_IsHalted()  returns FALSE (0001ms, 0847ms total)
T09FC 001:837 JLINK_IsHalted()  returns FALSE (0001ms, 0847ms total)
T09FC 001:849 JLINK_IsHalted()  returns FALSE (0001ms, 0847ms total)
T09FC 001:866 JLINK_IsHalted() -- CPU_ReadMem(2 bytes @ 0x20000000)  returns TRUE (0006ms, 0852ms total)
T09FC 001:872 JLINK_ReadReg(R15 (PC))  returns 0x20000000 (0000ms, 0846ms total)
T09FC 001:872 JLINK_ClrBPEx(BPHandle = 0x00000003)  returns 0x00 (0001ms, 0847ms total)
T09FC 001:873 JLINK_ReadReg(R0)  returns 0x00000000 (0000ms, 0847ms total)
T09FC 001:874 JLINK_WriteReg(R0, 0x08004000)  returns 0x00 (0000ms, 0847ms total)
T09FC 001:874 JLINK_WriteReg(R1, 0x00004000)  returns 0x00 (0000ms, 0847ms total)
T09FC 001:874 JLINK_WriteReg(R2, 0x000000FF)  returns 0x00 (0001ms, 0848ms total)
T09FC 001:875 JLINK_WriteReg(R3, 0x00000000)  returns 0x00 (0000ms, 0848ms total)
T09FC 001:875 JLINK_WriteReg(R4, 0x00000000)  returns 0x00 (0000ms, 0848ms total)
T09FC 001:875 JLINK_WriteReg(R5, 0x00000000)  returns 0x00 (0000ms, 0848ms total)
T09FC 001:875 JLINK_WriteReg(R6, 0x00000000)  returns 0x00 (0000ms, 0848ms total)
T09FC 001:875 JLINK_WriteReg(R7, 0x00000000)  returns 0x00 (0000ms, 0848ms total)
T09FC 001:875 JLINK_WriteReg(R8, 0x00000000)  returns 0x00 (0000ms, 0848ms total)
T09FC 001:875 JLINK_WriteReg(R9, 0x2000017C)  returns 0x00 (0001ms, 0849ms total)
T09FC 001:876 JLINK_WriteReg(R10, 0x00000000)  returns 0x00 (0000ms, 0849ms total)
T09FC 001:876 JLINK_WriteReg(R11, 0x00000000)  returns 0x00 (0000ms, 0849ms total)
T09FC 001:876 JLINK_WriteReg(R12, 0x00000000)  returns 0x00 (0000ms, 0849ms total)
T09FC 001:876 JLINK_WriteReg(R13 (SP), 0x20001000)  returns 0x00 (0000ms, 0849ms total)
T09FC 001:876 JLINK_WriteReg(R14, 0x20000001)  returns 0x00 (0000ms, 0849ms total)
T09FC 001:876 JLINK_WriteReg(R15 (PC), 0x20000020)  returns 0x00 (0000ms, 0849ms total)
T09FC 001:876 JLINK_WriteReg(XPSR, 0x01000000)  returns 0x00 (0001ms, 0850ms total)
T09FC 001:877 JLINK_WriteReg(MSP, 0x20001000)  returns 0x00 (0000ms, 0850ms total)
T09FC 001:877 JLINK_WriteReg(PSP, 0x20001000)  returns 0x00 (0000ms, 0850ms total)
T09FC 001:877 JLINK_WriteReg(CFBP, 0x00000000)  returns 0x00 (0000ms, 0850ms total)
T09FC 001:877 JLINK_SetBPEx(Addr = 0x20000000, Type = 0xFFFFFFF2)  returns 0x00000004 (0000ms, 0850ms total)
T09FC 001:877 JLINK_Go() (0004ms, 0854ms total)
T09FC 001:881 JLINK_IsHalted() -- CPU_ReadMem(2 bytes @ 0x20000000)  returns TRUE (0006ms, 0860ms total)
T09FC 001:887 JLINK_ReadReg(R15 (PC))  returns 0x20000000 (0000ms, 0854ms total)
T09FC 001:887 JLINK_ClrBPEx(BPHandle = 0x00000004)  returns 0x00 (0001ms, 0855ms total)
T09FC 001:888 JLINK_ReadReg(R0)  returns 0x00000001 (0000ms, 0855ms total)
T09FC 001:888 JLINK_WriteReg(R0, 0x08004000)  returns 0x00 (0000ms, 0855ms total)
T09FC 001:888 JLINK_WriteReg(R1, 0x00004000)  returns 0x00 (0000ms, 0855ms total)
T09FC 001:888 JLINK_WriteReg(R2, 0x000000FF)  returns 0x00 (0000ms, 0855ms total)
T09FC 001:888 JLINK_WriteReg(R3, 0x00000000)  returns 0x00 (0000ms, 0855ms total)
T09FC 001:888 JLINK_WriteReg(R4, 0x00000000)  returns 0x00 (0001ms, 0856ms total)
T09FC 001:889 JLINK_WriteReg(R5, 0x00000000)  returns 0x00 (0000ms, 0856ms total)
T09FC 001:889 JLINK_WriteReg(R6, 0x00000000)  returns 0x00 (0000ms, 0856ms total)
T09FC 001:889 JLINK_WriteReg(R7, 0x00000000)  returns 0x00 (0000ms, 0856ms total)
T09FC 001:889 JLINK_WriteReg(R8, 0x00000000)  returns 0x00 (0000ms, 0856ms total)
T09FC 001:889 JLINK_WriteReg(R9, 0x2000017C)  returns 0x00 (0000ms, 0856ms total)
T09FC 001:889 JLINK_WriteReg(R10, 0x00000000)  returns 0x00 (0001ms, 0857ms total)
T09FC 001:890 JLINK_WriteReg(R11, 0x00000000)  returns 0x00 (0000ms, 0857ms total)
T09FC 001:890 JLINK_WriteReg(R12, 0x00000000)  returns 0x00 (0000ms, 0857ms total)
T09FC 001:890 JLINK_WriteReg(R13 (SP), 0x20001000)  returns 0x00 (0000ms, 0857ms total)
T09FC 001:890 JLINK_WriteReg(R14, 0x20000001)  returns 0x00 (0000ms, 0857ms total)
T09FC 001:890 JLINK_WriteReg(R15 (PC), 0x200000BC)  returns 0x00 (0001ms, 0858ms total)
T09FC 001:892 JLINK_WriteReg(XPSR, 0x01000000)  returns 0x00 (0000ms, 0858ms total)
T09FC 001:892 JLINK_WriteReg(MSP, 0x20001000)  returns 0x00 (0000ms, 0858ms total)
T09FC 001:892 JLINK_WriteReg(PSP, 0x20001000)  returns 0x00 (0000ms, 0858ms total)
T09FC 001:892 JLINK_WriteReg(CFBP, 0x00000000)  returns 0x00 (0000ms, 0858ms total)
T09FC 001:892 JLINK_SetBPEx(Addr = 0x20000000, Type = 0xFFFFFFF2)  returns 0x00000005 (0000ms, 0858ms total)
T09FC 001:893 JLINK_Go() (0002ms, 0861ms total)
T09FC 001:895 JLINK_IsHalted()  returns FALSE (0002ms, 0863ms total)
T09FC 001:909 JLINK_IsHalted()  returns FALSE (0001ms, 0862ms total)
T09FC 001:912 JLINK_IsHalted()  returns FALSE (0001ms, 0862ms total)
T09FC 001:914 JLINK_IsHalted()  returns FALSE (0001ms, 0862ms total)
T09FC 001:933 JLINK_IsHalted()  returns FALSE (0002ms, 0863ms total)
T09FC 001:936 JLINK_IsHalted()  returns FALSE (0001ms, 0862ms total)
T09FC 001:947 JLINK_IsHalted()  returns FALSE (0001ms, 0862ms total)
T09FC 001:960 JLINK_IsHalted()  returns FALSE (0001ms, 0862ms total)
T09FC 001:970 JLINK_IsHalted()  returns FALSE (0001ms, 0862ms total)
T09FC 001:973 JLINK_IsHalted()  returns FALSE (0001ms, 0862ms total)
T09FC 001:976 JLINK_IsHalted()  returns FALSE (0001ms, 0862ms total)
T09FC 001:990 JLINK_IsHalted()  returns FALSE (0001ms, 0862ms total)
T09FC 002:004 JLINK_IsHalted()  returns FALSE (0001ms, 0862ms total)
T09FC 002:006 JLINK_IsHalted()  returns FALSE (0001ms, 0862ms total)
T09FC 002:018 JLINK_IsHalted()  returns FALSE (0001ms, 0862ms total)
T09FC 002:020 JLINK_IsHalted()  returns FALSE (0001ms, 0862ms total)
T09FC 002:023 JLINK_IsHalted()  returns FALSE (0001ms, 0862ms total)
T09FC 002:034 JLINK_IsHalted()  returns FALSE (0001ms, 0862ms total)
T09FC 002:037 JLINK_IsHalted()  returns FALSE (0001ms, 0862ms total)
T09FC 002:052 JLINK_IsHalted()  returns FALSE (0001ms, 0862ms total)
T09FC 002:055 JLINK_IsHalted()  returns FALSE (0001ms, 0862ms total)
T09FC 002:058 JLINK_IsHalted()  returns FALSE (0001ms, 0862ms total)
T09FC 002:070 JLINK_IsHalted()  returns FALSE (0001ms, 0862ms total)
T09FC 002:072 JLINK_IsHalted()  returns FALSE (0001ms, 0862ms total)
T09FC 002:075 JLINK_IsHalted()  returns FALSE (0001ms, 0862ms total)
T09FC 002:077 JLINK_IsHalted()  returns FALSE (0001ms, 0862ms total)
T09FC 002:096 JLINK_IsHalted()  returns FALSE (0001ms, 0862ms total)
T09FC 002:099 JLINK_IsHalted()  returns FALSE (0001ms, 0862ms total)
T09FC 002:102 JLINK_IsHalted()  returns FALSE (0001ms, 0862ms total)
T09FC 002:129 JLINK_IsHalted()  returns FALSE (0001ms, 0862ms total)
T09FC 002:132 JLINK_IsHalted()  returns FALSE (0001ms, 0862ms total)
T09FC 002:157 JLINK_IsHalted()  returns FALSE (0001ms, 0862ms total)
T09FC 002:160 JLINK_IsHalted()  returns FALSE (0002ms, 0863ms total)
T09FC 002:194 JLINK_IsHalted()  returns FALSE (0001ms, 0862ms total)
T09FC 002:197 JLINK_IsHalted()  returns FALSE (0001ms, 0862ms total)
T09FC 002:199 JLINK_IsHalted()  returns FALSE (0001ms, 0862ms total)
T09FC 002:202 JLINK_IsHalted()  returns FALSE (0001ms, 0862ms total)
T09FC 002:204 JLINK_IsHalted()  returns FALSE (0001ms, 0862ms total)
T09FC 002:222 JLINK_IsHalted()  returns FALSE (0002ms, 0863ms total)
T09FC 002:226 JLINK_IsHalted()  returns FALSE (0001ms, 0862ms total)
T09FC 002:252 JLINK_IsHalted()  returns FALSE (0001ms, 0862ms total)
T09FC 002:255 JLINK_IsHalted()  returns FALSE (0001ms, 0862ms total)
T09FC 002:258 JLINK_IsHalted()  returns FALSE (0001ms, 0862ms total)
T09FC 002:260 JLINK_IsHalted()  returns FALSE (0001ms, 0862ms total)
T09FC 002:272 JLINK_IsHalted()  returns FALSE (0001ms, 0862ms total)
T09FC 002:285 JLINK_IsHalted()  returns FALSE (0001ms, 0862ms total)
T09FC 002:288 JLINK_IsHalted()  returns FALSE (0001ms, 0862ms total)
T09FC 002:306 JLINK_IsHalted() -- CPU_ReadMem(2 bytes @ 0x20000000)  returns TRUE (0006ms, 0867ms total)
T09FC 002:312 JLINK_ReadReg(R15 (PC))  returns 0x20000000 (0000ms, 0861ms total)
T09FC 002:313 JLINK_ClrBPEx(BPHandle = 0x00000005)  returns 0x00 (0000ms, 0862ms total)
T09FC 002:313 JLINK_ReadReg(R0)  returns 0x00000000 (0000ms, 0862ms total)
T09FC 002:314 JLINK_WriteReg(R0, 0x08008000)  returns 0x00 (0000ms, 0862ms total)
T09FC 002:314 JLINK_WriteReg(R1, 0x00004000)  returns 0x00 (0000ms, 0862ms total)
T09FC 002:314 JLINK_WriteReg(R2, 0x000000FF)  returns 0x00 (0001ms, 0863ms total)
T09FC 002:315 JLINK_WriteReg(R3, 0x00000000)  returns 0x00 (0000ms, 0863ms total)
T09FC 002:315 JLINK_WriteReg(R4, 0x00000000)  returns 0x00 (0000ms, 0863ms total)
T09FC 002:315 JLINK_WriteReg(R5, 0x00000000)  returns 0x00 (0000ms, 0863ms total)
T09FC 002:315 JLINK_WriteReg(R6, 0x00000000)  returns 0x00 (0000ms, 0863ms total)
T09FC 002:315 JLINK_WriteReg(R7, 0x00000000)  returns 0x00 (0000ms, 0863ms total)
T09FC 002:315 JLINK_WriteReg(R8, 0x00000000)  returns 0x00 (0001ms, 0864ms total)
T09FC 002:316 JLINK_WriteReg(R9, 0x2000017C)  returns 0x00 (0000ms, 0864ms total)
T09FC 002:316 JLINK_WriteReg(R10, 0x00000000)  returns 0x00 (0000ms, 0864ms total)
T09FC 002:316 JLINK_WriteReg(R11, 0x00000000)  returns 0x00 (0000ms, 0864ms total)
T09FC 002:316 JLINK_WriteReg(R12, 0x00000000)  returns 0x00 (0000ms, 0864ms total)
T09FC 002:316 JLINK_WriteReg(R13 (SP), 0x20001000)  returns 0x00 (0000ms, 0864ms total)
T09FC 002:317 JLINK_WriteReg(R14, 0x20000001)  returns 0x00 (0000ms, 0865ms total)
T09FC 002:317 JLINK_WriteReg(R15 (PC), 0x20000020)  returns 0x00 (0000ms, 0865ms total)
T09FC 002:317 JLINK_WriteReg(XPSR, 0x01000000)  returns 0x00 (0000ms, 0865ms total)
T09FC 002:317 JLINK_WriteReg(MSP, 0x20001000)  returns 0x00 (0000ms, 0865ms total)
T09FC 002:317 JLINK_WriteReg(PSP, 0x20001000)  returns 0x00 (0000ms, 0865ms total)
T09FC 002:317 JLINK_WriteReg(CFBP, 0x00000000)  returns 0x00 (0001ms, 0866ms total)
T09FC 002:318 JLINK_SetBPEx(Addr = 0x20000000, Type = 0xFFFFFFF2)  returns 0x00000006 (0000ms, 0866ms total)
T09FC 002:318 JLINK_Go() (0003ms, 0869ms total)
T09FC 002:321 JLINK_IsHalted() -- CPU_ReadMem(2 bytes @ 0x20000000)  returns TRUE (0007ms, 0876ms total)
T09FC 002:328 JLINK_ReadReg(R15 (PC))  returns 0x20000000 (0000ms, 0869ms total)
T09FC 002:328 JLINK_ClrBPEx(BPHandle = 0x00000006)  returns 0x00 (0000ms, 0869ms total)
T09FC 002:328 JLINK_ReadReg(R0)  returns 0x00000001 (0000ms, 0869ms total)
T09FC 002:328 JLINK_WriteReg(R0, 0x08008000)  returns 0x00 (0000ms, 0869ms total)
T09FC 002:329 JLINK_WriteReg(R1, 0x00004000)  returns 0x00 (0000ms, 0870ms total)
T09FC 002:329 JLINK_WriteReg(R2, 0x000000FF)  returns 0x00 (0000ms, 0870ms total)
T09FC 002:329 JLINK_WriteReg(R3, 0x00000000)  returns 0x00 (0000ms, 0870ms total)
T09FC 002:329 JLINK_WriteReg(R4, 0x00000000)  returns 0x00 (0000ms, 0870ms total)
T09FC 002:329 JLINK_WriteReg(R5, 0x00000000)  returns 0x00 (0000ms, 0870ms total)
T09FC 002:329 JLINK_WriteReg(R6, 0x00000000)  returns 0x00 (0000ms, 0870ms total)
T09FC 002:329 JLINK_WriteReg(R7, 0x00000000)  returns 0x00 (0001ms, 0871ms total)
T09FC 002:330 JLINK_WriteReg(R8, 0x00000000)  returns 0x00 (0000ms, 0871ms total)
T09FC 002:330 JLINK_WriteReg(R9, 0x2000017C)  returns 0x00 (0000ms, 0871ms total)
T09FC 002:330 JLINK_WriteReg(R10, 0x00000000)  returns 0x00 (0000ms, 0871ms total)
T09FC 002:330 JLINK_WriteReg(R11, 0x00000000)  returns 0x00 (0000ms, 0871ms total)
T09FC 002:330 JLINK_WriteReg(R12, 0x00000000)  returns 0x00 (0000ms, 0871ms total)
T09FC 002:330 JLINK_WriteReg(R13 (SP), 0x20001000)  returns 0x00 (0001ms, 0872ms total)
T09FC 002:331 JLINK_WriteReg(R14, 0x20000001)  returns 0x00 (0000ms, 0872ms total)
T09FC 002:331 JLINK_WriteReg(R15 (PC), 0x200000BC)  returns 0x00 (0000ms, 0872ms total)
T09FC 002:331 JLINK_WriteReg(XPSR, 0x01000000)  returns 0x00 (0000ms, 0872ms total)
T09FC 002:331 JLINK_WriteReg(MSP, 0x20001000)  returns 0x00 (0000ms, 0872ms total)
T09FC 002:331 JLINK_WriteReg(PSP, 0x20001000)  returns 0x00 (0000ms, 0872ms total)
T09FC 002:331 JLINK_WriteReg(CFBP, 0x00000000)  returns 0x00 (0001ms, 0873ms total)
T09FC 002:332 JLINK_SetBPEx(Addr = 0x20000000, Type = 0xFFFFFFF2)  returns 0x00000007 (0000ms, 0873ms total)
T09FC 002:332 JLINK_Go() (0002ms, 0875ms total)
T09FC 002:335 JLINK_IsHalted()  returns FALSE (0000ms, 0876ms total)
T09FC 002:371 JLINK_IsHalted()  returns FALSE (0001ms, 0877ms total)
T09FC 002:382 JLINK_IsHalted()  returns FALSE (0001ms, 0877ms total)
T09FC 002:394 JLINK_IsHalted()  returns FALSE (0001ms, 0877ms total)
T09FC 002:397 JLINK_IsHalted()  returns FALSE (0001ms, 0877ms total)
T09FC 002:400 JLINK_IsHalted()  returns FALSE (0001ms, 0877ms total)
T09FC 002:412 JLINK_IsHalted()  returns FALSE (0001ms, 0877ms total)
T09FC 002:415 JLINK_IsHalted()  returns FALSE (0001ms, 0877ms total)
T09FC 002:431 JLINK_IsHalted()  returns FALSE (0001ms, 0877ms total)
T09FC 002:444 JLINK_IsHalted()  returns FALSE (0001ms, 0877ms total)
T09FC 002:447 JLINK_IsHalted()  returns FALSE (0001ms, 0877ms total)
T09FC 002:457 JLINK_IsHalted()  returns FALSE (0001ms, 0877ms total)
T09FC 002:460 JLINK_IsHalted()  returns FALSE (0001ms, 0877ms total)
T09FC 002:476 JLINK_IsHalted()  returns FALSE (0001ms, 0877ms total)
T09FC 002:491 JLINK_IsHalted()  returns FALSE (0001ms, 0877ms total)
T09FC 002:502 JLINK_IsHalted()  returns FALSE (0001ms, 0877ms total)
T09FC 002:505 JLINK_IsHalted()  returns FALSE (0001ms, 0877ms total)
T09FC 002:508 JLINK_IsHalted()  returns FALSE (0001ms, 0877ms total)
T09FC 002:511 JLINK_IsHalted()  returns FALSE (0001ms, 0877ms total)
T09FC 002:521 JLINK_IsHalted()  returns FALSE (0001ms, 0877ms total)
T09FC 002:533 JLINK_IsHalted()  returns FALSE (0001ms, 0877ms total)
T09FC 002:536 JLINK_IsHalted()  returns FALSE (0001ms, 0877ms total)
T09FC 002:539 JLINK_IsHalted()  returns FALSE (0001ms, 0877ms total)
T09FC 002:557 JLINK_IsHalted()  returns FALSE (0001ms, 0877ms total)
T09FC 002:560 JLINK_IsHalted()  returns FALSE (0001ms, 0877ms total)
T09FC 002:572 JLINK_IsHalted()  returns FALSE (0001ms, 0877ms total)
T09FC 002:585 JLINK_IsHalted()  returns FALSE (0001ms, 0877ms total)
T09FC 002:588 JLINK_IsHalted()  returns FALSE (0001ms, 0877ms total)
T09FC 002:591 JLINK_IsHalted()  returns FALSE (0001ms, 0877ms total)
T09FC 002:594 JLINK_IsHalted()  returns FALSE (0001ms, 0877ms total)
T09FC 002:617 JLINK_IsHalted()  returns FALSE (0001ms, 0877ms total)
T09FC 002:627 JLINK_IsHalted()  returns FALSE (0001ms, 0877ms total)
T09FC 002:629 JLINK_IsHalted()  returns FALSE (0001ms, 0877ms total)
T09FC 002:632 JLINK_IsHalted()  returns FALSE (0001ms, 0877ms total)
T09FC 002:635 JLINK_IsHalted()  returns FALSE (0001ms, 0877ms total)
T09FC 002:661 JLINK_IsHalted()  returns FALSE (0001ms, 0877ms total)
T09FC 002:664 JLINK_IsHalted()  returns FALSE (0001ms, 0877ms total)
T09FC 002:694 JLINK_IsHalted()  returns FALSE (0001ms, 0877ms total)
T09FC 002:697 JLINK_IsHalted()  returns FALSE (0001ms, 0877ms total)
T09FC 002:707 JLINK_IsHalted() -- CPU_ReadMem(2 bytes @ 0x20000000)  returns TRUE (0007ms, 0883ms total)
T09FC 002:714 JLINK_ReadReg(R15 (PC))  returns 0x20000000 (0000ms, 0876ms total)
T09FC 002:714 JLINK_ClrBPEx(BPHandle = 0x00000007)  returns 0x00 (0000ms, 0876ms total)
T09FC 002:714 JLINK_ReadReg(R0)  returns 0x00000000 (0000ms, 0876ms total)
T09FC 002:717 JLINK_WriteReg(R0, 0x00000001)  returns 0x00 (0000ms, 0876ms total)
T09FC 002:717 JLINK_WriteReg(R1, 0x00004000)  returns 0x00 (0000ms, 0876ms total)
T09FC 002:717 JLINK_WriteReg(R2, 0x000000FF)  returns 0x00 (0001ms, 0877ms total)
T09FC 002:718 JLINK_WriteReg(R3, 0x00000000)  returns 0x00 (0000ms, 0877ms total)
T09FC 002:718 JLINK_WriteReg(R4, 0x00000000)  returns 0x00 (0000ms, 0877ms total)
T09FC 002:718 JLINK_WriteReg(R5, 0x00000000)  returns 0x00 (0000ms, 0877ms total)
T09FC 002:718 JLINK_WriteReg(R6, 0x00000000)  returns 0x00 (0000ms, 0877ms total)
T09FC 002:718 JLINK_WriteReg(R7, 0x00000000)  returns 0x00 (0000ms, 0877ms total)
T09FC 002:718 JLINK_WriteReg(R8, 0x00000000)  returns 0x00 (0000ms, 0877ms total)
T09FC 002:718 JLINK_WriteReg(R9, 0x2000017C)  returns 0x00 (0001ms, 0878ms total)
T09FC 002:719 JLINK_WriteReg(R10, 0x00000000)  returns 0x00 (0000ms, 0878ms total)
T09FC 002:719 JLINK_WriteReg(R11, 0x00000000)  returns 0x00 (0000ms, 0878ms total)
T09FC 002:719 JLINK_WriteReg(R12, 0x00000000)  returns 0x00 (0000ms, 0878ms total)
T09FC 002:719 JLINK_WriteReg(R13 (SP), 0x20001000)  returns 0x00 (0000ms, 0878ms total)
T09FC 002:719 JLINK_WriteReg(R14, 0x20000001)  returns 0x00 (0000ms, 0878ms total)
T09FC 002:719 JLINK_WriteReg(R15 (PC), 0x20000082)  returns 0x00 (0001ms, 0879ms total)
T09FC 002:720 JLINK_WriteReg(XPSR, 0x01000000)  returns 0x00 (0000ms, 0879ms total)
T09FC 002:720 JLINK_WriteReg(MSP, 0x20001000)  returns 0x00 (0000ms, 0879ms total)
T09FC 002:720 JLINK_WriteReg(PSP, 0x20001000)  returns 0x00 (0000ms, 0879ms total)
T09FC 002:720 JLINK_WriteReg(CFBP, 0x00000000)  returns 0x00 (0000ms, 0879ms total)
T09FC 002:720 JLINK_SetBPEx(Addr = 0x20000000, Type = 0xFFFFFFF2)  returns 0x00000008 (0000ms, 0879ms total)
T09FC 002:720 JLINK_Go() (0004ms, 0883ms total)
T09FC 002:724 JLINK_IsHalted() -- CPU_ReadMem(2 bytes @ 0x20000000)  returns TRUE (0007ms, 0890ms total)
T09FC 002:731 JLINK_ReadReg(R15 (PC))  returns 0x20000000 (0000ms, 0883ms total)
T09FC 002:731 JLINK_ClrBPEx(BPHandle = 0x00000008)  returns 0x00 (0000ms, 0883ms total)
T09FC 002:731 JLINK_ReadReg(R0)  returns 0x00000000 (0000ms, 0883ms total)
T09FC 002:804 JLINK_WriteMem(0x20000000, 0x0180 Bytes, ...) - Data: 00 BE 0A E0 0D 78 2D 06 68 40 08 24 40 00 00 D3 ... -- CPU_WriteMem(384 bytes @ 0x20000000)  returns 0x180 (0005ms, 0888ms total)
T09FC 002:810 JLINK_WriteReg(R0, 0x08000000)  returns 0x00 (0000ms, 0889ms total)
T09FC 002:810 JLINK_WriteReg(R1, 0x00B71B00)  returns 0x00 (0000ms, 0889ms total)
T09FC 002:810 JLINK_WriteReg(R2, 0x00000002)  returns 0x00 (0000ms, 0889ms total)
T09FC 002:810 JLINK_WriteReg(R3, 0x00000000)  returns 0x00 (0000ms, 0889ms total)
T09FC 002:810 JLINK_WriteReg(R4, 0x00000000)  returns 0x00 (0001ms, 0890ms total)
T09FC 002:811 JLINK_WriteReg(R5, 0x00000000)  returns 0x00 (0000ms, 0890ms total)
T09FC 002:811 JLINK_WriteReg(R6, 0x00000000)  returns 0x00 (0000ms, 0890ms total)
T09FC 002:811 JLINK_WriteReg(R7, 0x00000000)  returns 0x00 (0000ms, 0890ms total)
T09FC 002:811 JLINK_WriteReg(R8, 0x00000000)  returns 0x00 (0000ms, 0890ms total)
T09FC 002:811 JLINK_WriteReg(R9, 0x2000017C)  returns 0x00 (0001ms, 0891ms total)
T09FC 002:812 JLINK_WriteReg(R10, 0x00000000)  returns 0x00 (0000ms, 0891ms total)
T09FC 002:812 JLINK_WriteReg(R11, 0x00000000)  returns 0x00 (0000ms, 0891ms total)
T09FC 002:812 JLINK_WriteReg(R12, 0x00000000)  returns 0x00 (0000ms, 0891ms total)
T09FC 002:812 JLINK_WriteReg(R13 (SP), 0x20001000)  returns 0x00 (0000ms, 0891ms total)
T09FC 002:812 JLINK_WriteReg(R14, 0x20000001)  returns 0x00 (0000ms, 0891ms total)
T09FC 002:812 JLINK_WriteReg(R15 (PC), 0x20000054)  returns 0x00 (0001ms, 0892ms total)
T09FC 002:813 JLINK_WriteReg(XPSR, 0x01000000)  returns 0x00 (0000ms, 0892ms total)
T09FC 002:813 JLINK_WriteReg(MSP, 0x20001000)  returns 0x00 (0000ms, 0892ms total)
T09FC 002:813 JLINK_WriteReg(PSP, 0x20001000)  returns 0x00 (0000ms, 0892ms total)
T09FC 002:813 JLINK_WriteReg(CFBP, 0x00000000)  returns 0x00 (0000ms, 0892ms total)
T09FC 002:813 JLINK_SetBPEx(Addr = 0x20000000, Type = 0xFFFFFFF2) -- CPU_ReadMem(2 bytes @ 0x20000000)  returns 0x00000009 (0002ms, 0894ms total)
T09FC 002:815 JLINK_Go() -- CPU_WriteMem(2 bytes @ 0x20000000) (0004ms, 0898ms total)
T09FC 002:819 JLINK_IsHalted() -- CPU_ReadMem(2 bytes @ 0x20000000)  returns TRUE (0006ms, 0904ms total)
T09FC 002:825 JLINK_ReadReg(R15 (PC))  returns 0x20000000 (0001ms, 0899ms total)
T09FC 002:826 JLINK_ClrBPEx(BPHandle = 0x00000009)  returns 0x00 (0000ms, 0899ms total)
T09FC 002:826 JLINK_ReadReg(R0)  returns 0x00000000 (0000ms, 0899ms total)
T09FC 002:827 JLINK_WriteMem(0x20000180, 0x0400 Bytes, ...) - Data: 00 BC 01 20 E5 02 00 08 73 6C 00 08 ED 26 00 08 ... -- CPU_WriteMem(1024 bytes @ 0x20000180)  returns 0x400 (0011ms, 0910ms total)
T09FC 002:838 JLINK_WriteReg(R0, 0x08000000)  returns 0x00 (0000ms, 0910ms total)
T09FC 002:838 JLINK_WriteReg(R1, 0x00000400)  returns 0x00 (0000ms, 0910ms total)
T09FC 002:838 JLINK_WriteReg(R2, 0x20000180)  returns 0x00 (0000ms, 0910ms total)
T09FC 002:838 JLINK_WriteReg(R3, 0x00000000)  returns 0x00 (0000ms, 0910ms total)
T09FC 002:838 JLINK_WriteReg(R4, 0x00000000)  returns 0x00 (0000ms, 0910ms total)
T09FC 002:838 JLINK_WriteReg(R5, 0x00000000)  returns 0x00 (0001ms, 0911ms total)
T09FC 002:839 JLINK_WriteReg(R6, 0x00000000)  returns 0x00 (0000ms, 0911ms total)
T09FC 002:839 JLINK_WriteReg(R7, 0x00000000)  returns 0x00 (0000ms, 0911ms total)
T09FC 002:839 JLINK_WriteReg(R8, 0x00000000)  returns 0x00 (0000ms, 0911ms total)
T09FC 002:839 JLINK_WriteReg(R9, 0x2000017C)  returns 0x00 (0000ms, 0911ms total)
T09FC 002:839 JLINK_WriteReg(R10, 0x00000000)  returns 0x00 (0000ms, 0911ms total)
T09FC 002:839 JLINK_WriteReg(R11, 0x00000000)  returns 0x00 (0001ms, 0912ms total)
T09FC 002:840 JLINK_WriteReg(R12, 0x00000000)  returns 0x00 (0000ms, 0912ms total)
T09FC 002:840 JLINK_WriteReg(R13 (SP), 0x20001000)  returns 0x00 (0000ms, 0912ms total)
T09FC 002:840 JLINK_WriteReg(R14, 0x20000001)  returns 0x00 (0000ms, 0912ms total)
T09FC 002:840 JLINK_WriteReg(R15 (PC), 0x20000108)  returns 0x00 (0000ms, 0912ms total)
T09FC 002:840 JLINK_WriteReg(XPSR, 0x01000000)  returns 0x00 (0000ms, 0912ms total)
T09FC 002:840 JLINK_WriteReg(MSP, 0x20001000)  returns 0x00 (0001ms, 0913ms total)
T09FC 002:841 JLINK_WriteReg(PSP, 0x20001000)  returns 0x00 (0000ms, 0913ms total)
T09FC 002:841 JLINK_WriteReg(CFBP, 0x00000000)  returns 0x00 (0000ms, 0913ms total)
T09FC 002:841 JLINK_SetBPEx(Addr = 0x20000000, Type = 0xFFFFFFF2)  returns 0x0000000A (0000ms, 0913ms total)
T09FC 002:841 JLINK_Go() (0003ms, 0916ms total)
T09FC 002:844 JLINK_IsHalted()  returns FALSE (0001ms, 0917ms total)
T09FC 002:882 JLINK_IsHalted() -- CPU_ReadMem(2 bytes @ 0x20000000)  returns TRUE (0006ms, 0922ms total)
T09FC 002:888 JLINK_ReadReg(R15 (PC))  returns 0x20000000 (0000ms, 0916ms total)
T09FC 002:888 JLINK_ClrBPEx(BPHandle = 0x0000000A)  returns 0x00 (0001ms, 0917ms total)
T09FC 002:889 JLINK_ReadReg(R0)  returns 0x00000000 (0000ms, 0917ms total)
T09FC 002:890 JLINK_WriteMem(0x20000180, 0x0400 Bytes, ...) - Data: F2 F3 02 FB 1C 00 30 30 78 54 18 46 49 1C 00 28 ... -- CPU_WriteMem(1024 bytes @ 0x20000180)  returns 0x400 (0011ms, 0928ms total)
T09FC 002:901 JLINK_WriteReg(R0, 0x08000400)  returns 0x00 (0000ms, 0928ms total)
T09FC 002:901 JLINK_WriteReg(R1, 0x00000400)  returns 0x00 (0000ms, 0928ms total)
T09FC 002:901 JLINK_WriteReg(R2, 0x20000180)  returns 0x00 (0000ms, 0928ms total)
T09FC 002:901 JLINK_WriteReg(R3, 0x00000000)  returns 0x00 (0001ms, 0929ms total)
T09FC 002:902 JLINK_WriteReg(R4, 0x00000000)  returns 0x00 (0000ms, 0929ms total)
T09FC 002:902 JLINK_WriteReg(R5, 0x00000000)  returns 0x00 (0000ms, 0929ms total)
T09FC 002:902 JLINK_WriteReg(R6, 0x00000000)  returns 0x00 (0000ms, 0929ms total)
T09FC 002:902 JLINK_WriteReg(R7, 0x00000000)  returns 0x00 (0000ms, 0929ms total)
T09FC 002:902 JLINK_WriteReg(R8, 0x00000000)  returns 0x00 (0000ms, 0929ms total)
T09FC 002:902 JLINK_WriteReg(R9, 0x2000017C)  returns 0x00 (0001ms, 0930ms total)
T09FC 002:903 JLINK_WriteReg(R10, 0x00000000)  returns 0x00 (0000ms, 0930ms total)
T09FC 002:903 JLINK_WriteReg(R11, 0x00000000)  returns 0x00 (0000ms, 0930ms total)
T09FC 002:903 JLINK_WriteReg(R12, 0x00000000)  returns 0x00 (0000ms, 0930ms total)
T09FC 002:903 JLINK_WriteReg(R13 (SP), 0x20001000)  returns 0x00 (0000ms, 0930ms total)
T09FC 002:903 JLINK_WriteReg(R14, 0x20000001)  returns 0x00 (0000ms, 0930ms total)
T09FC 002:903 JLINK_WriteReg(R15 (PC), 0x20000108)  returns 0x00 (0000ms, 0930ms total)
T09FC 002:904 JLINK_WriteReg(XPSR, 0x01000000)  returns 0x00 (0000ms, 0931ms total)
T09FC 002:904 JLINK_WriteReg(MSP, 0x20001000)  returns 0x00 (0000ms, 0931ms total)
T09FC 002:904 JLINK_WriteReg(PSP, 0x20001000)  returns 0x00 (0000ms, 0931ms total)
T09FC 002:904 JLINK_WriteReg(CFBP, 0x00000000)  returns 0x00 (0000ms, 0931ms total)
T09FC 002:904 JLINK_SetBPEx(Addr = 0x20000000, Type = 0xFFFFFFF2)  returns 0x0000000B (0000ms, 0931ms total)
T09FC 002:904 JLINK_Go() (0004ms, 0935ms total)
T09FC 002:908 JLINK_IsHalted()  returns FALSE (0001ms, 0936ms total)
T09FC 002:932 JLINK_IsHalted() -- CPU_ReadMem(2 bytes @ 0x20000000)  returns TRUE (0006ms, 0941ms total)
T09FC 002:939 JLINK_ReadReg(R15 (PC))  returns 0x20000000 (0001ms, 0936ms total)
T09FC 002:940 JLINK_ClrBPEx(BPHandle = 0x0000000B)  returns 0x00 (0000ms, 0936ms total)
T09FC 002:940 JLINK_ReadReg(R0)  returns 0x00000000 (0000ms, 0936ms total)
T09FC 002:941 JLINK_WriteMem(0x20000180, 0x0400 Bytes, ...) - Data: 01 D5 C0 B2 70 47 C9 05 FC D5 80 B2 70 47 2D E9 ... -- CPU_WriteMem(1024 bytes @ 0x20000180)  returns 0x400 (0011ms, 0947ms total)
T09FC 002:952 JLINK_WriteReg(R0, 0x08000800)  returns 0x00 (0000ms, 0947ms total)
T09FC 002:952 JLINK_WriteReg(R1, 0x00000400)  returns 0x00 (0000ms, 0947ms total)
T09FC 002:952 JLINK_WriteReg(R2, 0x20000180)  returns 0x00 (0000ms, 0947ms total)
T09FC 002:952 JLINK_WriteReg(R3, 0x00000000)  returns 0x00 (0001ms, 0948ms total)
T09FC 002:953 JLINK_WriteReg(R4, 0x00000000)  returns 0x00 (0000ms, 0948ms total)
T09FC 002:953 JLINK_WriteReg(R5, 0x00000000)  returns 0x00 (0000ms, 0948ms total)
T09FC 002:953 JLINK_WriteReg(R6, 0x00000000)  returns 0x00 (0000ms, 0948ms total)
T09FC 002:953 JLINK_WriteReg(R7, 0x00000000)  returns 0x00 (0000ms, 0948ms total)
T09FC 002:953 JLINK_WriteReg(R8, 0x00000000)  returns 0x00 (0000ms, 0948ms total)
T09FC 002:953 JLINK_WriteReg(R9, 0x2000017C)  returns 0x00 (0000ms, 0948ms total)
T09FC 002:954 JLINK_WriteReg(R10, 0x00000000)  returns 0x00 (0000ms, 0949ms total)
T09FC 002:954 JLINK_WriteReg(R11, 0x00000000)  returns 0x00 (0000ms, 0949ms total)
T09FC 002:954 JLINK_WriteReg(R12, 0x00000000)  returns 0x00 (0000ms, 0949ms total)
T09FC 002:954 JLINK_WriteReg(R13 (SP), 0x20001000)  returns 0x00 (0000ms, 0949ms total)
T09FC 002:954 JLINK_WriteReg(R14, 0x20000001)  returns 0x00 (0000ms, 0949ms total)
T09FC 002:954 JLINK_WriteReg(R15 (PC), 0x20000108)  returns 0x00 (0000ms, 0949ms total)
T09FC 002:954 JLINK_WriteReg(XPSR, 0x01000000)  returns 0x00 (0001ms, 0950ms total)
T09FC 002:955 JLINK_WriteReg(MSP, 0x20001000)  returns 0x00 (0000ms, 0950ms total)
T09FC 002:955 JLINK_WriteReg(PSP, 0x20001000)  returns 0x00 (0000ms, 0950ms total)
T09FC 002:955 JLINK_WriteReg(CFBP, 0x00000000)  returns 0x00 (0000ms, 0950ms total)
T09FC 002:955 JLINK_SetBPEx(Addr = 0x20000000, Type = 0xFFFFFFF2)  returns 0x0000000C (0000ms, 0950ms total)
T09FC 002:955 JLINK_Go() (0003ms, 0953ms total)
T09FC 002:959 JLINK_IsHalted()  returns FALSE (0000ms, 0954ms total)
T09FC 002:974 JLINK_IsHalted() -- CPU_ReadMem(2 bytes @ 0x20000000)  returns TRUE (0007ms, 0961ms total)
T09FC 002:981 JLINK_ReadReg(R15 (PC))  returns 0x20000000 (0000ms, 0954ms total)
T09FC 002:981 JLINK_ClrBPEx(BPHandle = 0x0000000C)  returns 0x00 (0000ms, 0954ms total)
T09FC 002:981 JLINK_ReadReg(R0)  returns 0x00000000 (0000ms, 0954ms total)
T09FC 002:982 JLINK_WriteMem(0x20000180, 0x0400 Bytes, ...) - Data: 30 BD 40 1C 41 F1 00 01 30 BD 70 47 2D E9 FF 4F ... -- CPU_WriteMem(1024 bytes @ 0x20000180)  returns 0x400 (0011ms, 0965ms total)
T09FC 002:994 JLINK_WriteReg(R0, 0x08000C00)  returns 0x00 (0000ms, 0966ms total)
T09FC 002:994 JLINK_WriteReg(R1, 0x00000400)  returns 0x00 (0000ms, 0966ms total)
T09FC 002:994 JLINK_WriteReg(R2, 0x20000180)  returns 0x00 (0000ms, 0966ms total)
T09FC 002:994 JLINK_WriteReg(R3, 0x00000000)  returns 0x00 (0000ms, 0966ms total)
T09FC 002:994 JLINK_WriteReg(R4, 0x00000000)  returns 0x00 (0000ms, 0966ms total)
T09FC 002:994 JLINK_WriteReg(R5, 0x00000000)  returns 0x00 (0001ms, 0967ms total)
T09FC 002:995 JLINK_WriteReg(R6, 0x00000000)  returns 0x00 (0000ms, 0967ms total)
T09FC 002:995 JLINK_WriteReg(R7, 0x00000000)  returns 0x00 (0000ms, 0967ms total)
T09FC 002:995 JLINK_WriteReg(R8, 0x00000000)  returns 0x00 (0000ms, 0967ms total)
T09FC 002:995 JLINK_WriteReg(R9, 0x2000017C)  returns 0x00 (0000ms, 0967ms total)
T09FC 002:995 JLINK_WriteReg(R10, 0x00000000)  returns 0x00 (0000ms, 0967ms total)
T09FC 002:995 JLINK_WriteReg(R11, 0x00000000)  returns 0x00 (0000ms, 0967ms total)
T09FC 002:995 JLINK_WriteReg(R12, 0x00000000)  returns 0x00 (0001ms, 0968ms total)
T09FC 002:996 JLINK_WriteReg(R13 (SP), 0x20001000)  returns 0x00 (0000ms, 0968ms total)
T09FC 002:996 JLINK_WriteReg(R14, 0x20000001)  returns 0x00 (0000ms, 0968ms total)
T09FC 002:996 JLINK_WriteReg(R15 (PC), 0x20000108)  returns 0x00 (0000ms, 0968ms total)
T09FC 002:996 JLINK_WriteReg(XPSR, 0x01000000)  returns 0x00 (0000ms, 0968ms total)
T09FC 002:996 JLINK_WriteReg(MSP, 0x20001000)  returns 0x00 (0000ms, 0968ms total)
T09FC 002:996 JLINK_WriteReg(PSP, 0x20001000)  returns 0x00 (0001ms, 0969ms total)
T09FC 002:997 JLINK_WriteReg(CFBP, 0x00000000)  returns 0x00 (0000ms, 0969ms total)
T09FC 002:997 JLINK_SetBPEx(Addr = 0x20000000, Type = 0xFFFFFFF2)  returns 0x0000000D (0000ms, 0969ms total)
T09FC 002:997 JLINK_Go() (0003ms, 0972ms total)
T09FC 003:000 JLINK_IsHalted()  returns FALSE (0001ms, 0973ms total)
T09FC 003:023 JLINK_IsHalted() -- CPU_ReadMem(2 bytes @ 0x20000000)  returns TRUE (0007ms, 0979ms total)
T09FC 003:030 JLINK_ReadReg(R15 (PC))  returns 0x20000000 (0000ms, 0972ms total)
T09FC 003:030 JLINK_ClrBPEx(BPHandle = 0x0000000D)  returns 0x00 (0000ms, 0972ms total)
T09FC 003:030 JLINK_ReadReg(R0)  returns 0x00000000 (0000ms, 0972ms total)
T09FC 003:031 JLINK_WriteMem(0x20000180, 0x0400 Bytes, ...) - Data: D4 E9 01 21 18 F8 01 0B 90 47 20 6A 40 1C 20 62 ... -- CPU_WriteMem(1024 bytes @ 0x20000180)  returns 0x400 (0011ms, 0983ms total)
T09FC 003:042 JLINK_WriteReg(R0, 0x08001000)  returns 0x00 (0000ms, 0983ms total)
T09FC 003:042 JLINK_WriteReg(R1, 0x00000400)  returns 0x00 (0001ms, 0984ms total)
T09FC 003:043 JLINK_WriteReg(R2, 0x20000180)  returns 0x00 (0000ms, 0984ms total)
T09FC 003:043 JLINK_WriteReg(R3, 0x00000000)  returns 0x00 (0000ms, 0984ms total)
T09FC 003:043 JLINK_WriteReg(R4, 0x00000000)  returns 0x00 (0000ms, 0984ms total)
T09FC 003:043 JLINK_WriteReg(R5, 0x00000000)  returns 0x00 (0000ms, 0984ms total)
T09FC 003:043 JLINK_WriteReg(R6, 0x00000000)  returns 0x00 (0000ms, 0984ms total)
T09FC 003:043 JLINK_WriteReg(R7, 0x00000000)  returns 0x00 (0001ms, 0985ms total)
T09FC 003:044 JLINK_WriteReg(R8, 0x00000000)  returns 0x00 (0000ms, 0985ms total)
T09FC 003:044 JLINK_WriteReg(R9, 0x2000017C)  returns 0x00 (0000ms, 0985ms total)
T09FC 003:044 JLINK_WriteReg(R10, 0x00000000)  returns 0x00 (0000ms, 0985ms total)
T09FC 003:044 JLINK_WriteReg(R11, 0x00000000)  returns 0x00 (0000ms, 0985ms total)
T09FC 003:044 JLINK_WriteReg(R12, 0x00000000)  returns 0x00 (0000ms, 0985ms total)
T09FC 003:044 JLINK_WriteReg(R13 (SP), 0x20001000)  returns 0x00 (0001ms, 0986ms total)
T09FC 003:045 JLINK_WriteReg(R14, 0x20000001)  returns 0x00 (0000ms, 0986ms total)
T09FC 003:045 JLINK_WriteReg(R15 (PC), 0x20000108)  returns 0x00 (0000ms, 0986ms total)
T09FC 003:045 JLINK_WriteReg(XPSR, 0x01000000)  returns 0x00 (0000ms, 0986ms total)
T09FC 003:045 JLINK_WriteReg(MSP, 0x20001000)  returns 0x00 (0000ms, 0986ms total)
T09FC 003:045 JLINK_WriteReg(PSP, 0x20001000)  returns 0x00 (0000ms, 0986ms total)
T09FC 003:046 JLINK_WriteReg(CFBP, 0x00000000)  returns 0x00 (0000ms, 0987ms total)
T09FC 003:046 JLINK_SetBPEx(Addr = 0x20000000, Type = 0xFFFFFFF2)  returns 0x0000000E (0000ms, 0987ms total)
T09FC 003:046 JLINK_Go() (0003ms, 0990ms total)
T09FC 003:049 JLINK_IsHalted()  returns FALSE (0001ms, 0991ms total)
T09FC 003:073 JLINK_IsHalted() -- CPU_ReadMem(2 bytes @ 0x20000000)  returns TRUE (0006ms, 0996ms total)
T09FC 003:079 JLINK_ReadReg(R15 (PC))  returns 0x20000000 (0000ms, 0990ms total)
T09FC 003:079 JLINK_ClrBPEx(BPHandle = 0x0000000E)  returns 0x00 (0000ms, 0990ms total)
T09FC 003:079 JLINK_ReadReg(R0)  returns 0x00000000 (0001ms, 0991ms total)
T09FC 003:081 JLINK_WriteMem(0x20000180, 0x0400 Bytes, ...) - Data: 03 26 01 68 07 2A 01 F4 00 60 04 DB 08 B1 16 A5 ... -- CPU_WriteMem(1024 bytes @ 0x20000180)  returns 0x400 (0011ms, 1002ms total)
T09FC 003:092 JLINK_WriteReg(R0, 0x08001400)  returns 0x00 (0000ms, 1002ms total)
T09FC 003:092 JLINK_WriteReg(R1, 0x00000400)  returns 0x00 (0000ms, 1002ms total)
T09FC 003:092 JLINK_WriteReg(R2, 0x20000180)  returns 0x00 (0000ms, 1002ms total)
T09FC 003:092 JLINK_WriteReg(R3, 0x00000000)  returns 0x00 (0000ms, 1002ms total)
T09FC 003:093 JLINK_WriteReg(R4, 0x00000000)  returns 0x00 (0000ms, 1003ms total)
T09FC 003:093 JLINK_WriteReg(R5, 0x00000000)  returns 0x00 (0000ms, 1003ms total)
T09FC 003:093 JLINK_WriteReg(R6, 0x00000000)  returns 0x00 (0000ms, 1003ms total)
T09FC 003:093 JLINK_WriteReg(R7, 0x00000000)  returns 0x00 (0000ms, 1003ms total)
T09FC 003:093 JLINK_WriteReg(R8, 0x00000000)  returns 0x00 (0000ms, 1003ms total)
T09FC 003:093 JLINK_WriteReg(R9, 0x2000017C)  returns 0x00 (0000ms, 1003ms total)
T09FC 003:093 JLINK_WriteReg(R10, 0x00000000)  returns 0x00 (0001ms, 1004ms total)
T09FC 003:094 JLINK_WriteReg(R11, 0x00000000)  returns 0x00 (0000ms, 1004ms total)
T09FC 003:094 JLINK_WriteReg(R12, 0x00000000)  returns 0x00 (0000ms, 1004ms total)
T09FC 003:094 JLINK_WriteReg(R13 (SP), 0x20001000)  returns 0x00 (0000ms, 1004ms total)
T09FC 003:094 JLINK_WriteReg(R14, 0x20000001)  returns 0x00 (0000ms, 1004ms total)
T09FC 003:094 JLINK_WriteReg(R15 (PC), 0x20000108)  returns 0x00 (0000ms, 1004ms total)
T09FC 003:094 JLINK_WriteReg(XPSR, 0x01000000)  returns 0x00 (0001ms, 1005ms total)
T09FC 003:095 JLINK_WriteReg(MSP, 0x20001000)  returns 0x00 (0000ms, 1005ms total)
T09FC 003:095 JLINK_WriteReg(PSP, 0x20001000)  returns 0x00 (0000ms, 1005ms total)
T09FC 003:095 JLINK_WriteReg(CFBP, 0x00000000)  returns 0x00 (0000ms, 1005ms total)
T09FC 003:095 JLINK_SetBPEx(Addr = 0x20000000, Type = 0xFFFFFFF2)  returns 0x0000000F (0000ms, 1005ms total)
T09FC 003:095 JLINK_Go() (0004ms, 1009ms total)
T09FC 003:099 JLINK_IsHalted()  returns FALSE (0001ms, 1010ms total)
T09FC 003:116 JLINK_IsHalted() -- CPU_ReadMem(2 bytes @ 0x20000000)  returns TRUE (0007ms, 1016ms total)
T09FC 003:123 JLINK_ReadReg(R15 (PC))  returns 0x20000000 (0000ms, 1009ms total)
T09FC 003:123 JLINK_ClrBPEx(BPHandle = 0x0000000F)  returns 0x00 (0000ms, 1009ms total)
T09FC 003:123 JLINK_ReadReg(R0)  returns 0x00000000 (0000ms, 1009ms total)
